
T02BC 000:953 SEGGER J-Link V4.15n (beta) Log File (0014ms, 0950ms total)
T02BC 000:953 DLL Compiled: Jun 18 2010 19:55:09 (0014ms, 0950ms total)
T02BC 000:953 Logging started @ 2014-12-05 16:26 (0014ms, 0950ms total)
T02BC 000:967 JLINK_SetWarnOutHandler(...) (0000ms, 0964ms total)
T02BC 000:967 JLINK_OpenEx(...)
Firmware: J-Link ARM V8 compiled Jun 19 2012 11:29:30
Hardware: V8.00
S/N: 99999994
Feature(s): RDI,FlashDL,FlashBP,JFlash,GDBFULL  returns O.K. (0130ms, 0964ms total)
T02BC 001:097 JLINK_SetErrorOutHandler(...) (0000ms, 1094ms total)
T02BC 001:098 JLINK_ExecCommand("ProjectFile = "F:\My-Document-From20140630\Ç¶Èë±à³Ì\SubstituteOfDDNS\20141202\prj\JLinkSettings.ini"", ...)  returns 0x00 (0001ms, 1094ms total)
T02BC 001:106 JLINK_ExecCommand("DisableConnectionTimeout", ...)  returns 0x00 (0000ms, 1095ms total)
T02BC 001:106 JLINK_TIF_Select(JLINKARM_TIF_JTAG)  returns 0x00 (0000ms, 1095ms total)
T02BC 001:106 JLINK_SetSpeed(2000) (0001ms, 1095ms total)
T02BC 001:107 JLINK_GetHardwareVersion()  returns 0x13880 (0000ms, 1096ms total)
T02BC 001:107 JLINK_GetDLLVersion()  returns 41514 (0000ms, 1096ms total)
T02BC 001:107 JLINK_GetFirmwareString(...) (0000ms, 1096ms total)
T02BC 001:124 JLINK_GetDLLVersion()  returns 41514 (0000ms, 1096ms total)
T02BC 001:124 JLINK_GetCompileDateTime() (0000ms, 1096ms total)
T02BC 001:126 JLINK_GetFirmwareString(...) (0000ms, 1096ms total)
T02BC 001:128 JLINK_GetHardwareVersion()  returns 0x13880 (0000ms, 1096ms total)
T02BC 001:134 JLINK_Reset() >0x2F8 JTAG>TotalIRLen = 9, IRPrint = 0x0011 >0x30 JTAG> >0x210 JTAG> >0x118 JTAG> >0xD8 JTAG> >0x198 JTAG> >0x38 JTAG> >0x118 JTAG> >0xD8 JTAG> >0x2F0 JTAG> >0x2F0 JTAG> >0x198 JTAG> >0x198 JTAG>Found Cortex-M3 r1p1, Little endian. >0xD8 JTAG> >0x240 JTAG> >0x198 JTAG> >0x240 JTAG> >0x198 JTAG>TPIU fitted. >0x198 JTAG> >0x198 JTAG>  FPUnit: 6 code (BP) slots and 2 literal slots >0x198 JTAG> >0x250 JTAG> >0x240 JTAG> >0x280 JTAG> >0x198 JTAG> >0x198 JTAG> >0x240 JTAG>
 >0x240 JTAG> >0x198 JTAG> >0x198 JTAG> >0x17A8 JTAG> >0x240 JTAG> >0x198 JTAG> >0x17A8 JTAG> >0x198 JTAG> -- CPU_WriteMem(4 bytes @ 0xE000EDFC) -- CPU_WriteMem(4 bytes @ 0xE0001028) -- CPU_WriteMem(4 bytes @ 0xE0001038) -- CPU_WriteMem(4 bytes @ 0xE0001048) -- CPU_WriteMem(4 bytes @ 0xE0001058) (0094ms, 1096ms total)
T02BC 001:228 JLINK_GetIdData(...) ScanLen=9 NumDevices=2 aId[0]=0x3BA00477 aIrRead[0]=0 aScanLen[0]=0 aScanRead[0]=0 (0001ms, 1190ms total)
T02BC 001:229 JLINK_JTAG_GetDeviceID(DeviceIndex = 0)  returns 0x3BA00477 (0000ms, 1191ms total)
T02BC 001:229 JLINK_JTAG_GetDeviceInfo(DeviceIndex = 0)  returns 0x00 (0000ms, 1191ms total)
T02BC 001:229 JLINK_JTAG_GetDeviceID(DeviceIndex = 1)  returns 0x16410041 (0000ms, 1191ms total)
T02BC 001:229 JLINK_JTAG_GetDeviceInfo(DeviceIndex = 1)  returns 0x00 (0000ms, 1191ms total)
T02BC 001:229 JLINK_GetDebugInfo(0x100) -- Value=0xE00FF003  returns 0x00 (0000ms, 1191ms total)
T02BC 001:232 JLINK_ReadMem (0xE00FF000, 0x0018 Bytes, ...) -- CPU_ReadMem(24 bytes @ 0xE00FF000) -- Data:  03 F0 F0 FF 03 20 F0 FF 03 30 F0 FF 03 10 F0 FF ...  returns 0x00 (0002ms, 1191ms total)
T02BC 001:234 JLINK_ReadMemU32(0xE000ED00, 0x0001 Items, ...) -- CPU_ReadMem(4 bytes @ 0xE000ED00) -- Data:  31 C2 1F 41  returns 0x01 (0001ms, 1193ms total)
T02BC 001:237 JLINK_Halt()  returns 0x00 (0000ms, 1194ms total)
T02BC 001:237 JLINK_IsHalted()  returns TRUE (0000ms, 1194ms total)
T02BC 001:237 JLINK_ReadMemU32(0xE000EDF0, 0x0001 Items, ...) -- CPU_ReadMem(4 bytes @ 0xE000EDF0) -- Data:  03 00 03 00  returns 0x01 (0001ms, 1194ms total)
T02BC 001:238 JLINK_WriteU32(0xE000EDF0, 0xA05F0003) -- CPU_WriteMem(4 bytes @ 0xE000EDF0)  returns 0x00 (0001ms, 1195ms total)
T02BC 001:239 JLINK_WriteU32(0xE000EDFC, 0x01000000) -- CPU_WriteMem(4 bytes @ 0xE000EDFC)  returns 0x00 (0001ms, 1196ms total)
T02BC 001:240 JLINK_ReadMemU32(0xE0002000, 0x0001 Items, ...) -- CPU_ReadMem(4 bytes @ 0xE0002000) -- Data:  60 02 00 00  returns 0x01 (0001ms, 1197ms total)
T02BC 001:241 JLINK_ReadMemU32(0xE0001000, 0x0001 Items, ...) -- CPU_ReadMem(4 bytes @ 0xE0001000) -- Data:  00 00 00 40  returns 0x01 (0001ms, 1198ms total)
T02BC 001:251 JLINK_ExecCommand("Device = STM32F103CB", ...)
                JLINK_ExecCommand("map ram 0x20000000 - 0x20004FFF", ...)  returns 0x00 (0000ms, 0000ms total)
                JLINK_AddMirrorAreaEx(Addr = 0x00000000, Size = 0x00000000) (0000ms, 0000ms total)
                returns 0x00 (0000ms, 1199ms total)
T02BC 001:251 JLINK_GetHWStatus(...)  returns 0x00 (0001ms, 1199ms total)
T02BC 001:256 JLINK_GetNumBPUnits(Type = 0xFFFFFF00) >0x2F8 JTAG>TotalIRLen = 9, IRPrint = 0x0011 >0x30 JTAG> >0x210 JTAG> >0x118 JTAG> >0xD8 JTAG> >0x198 JTAG> >0x38 JTAG> >0x118 JTAG> >0xD8 JTAG> >0x2F0 JTAG> >0x2F0 JTAG> >0x198 JTAG> >0x198 JTAG>Found Cortex-M3 r1p1, Little endian. >0xD8 JTAG> >0x240 JTAG> >0x198 JTAG> >0x198 JTAG>TPIU fitted. >0x198 JTAG> >0x198 JTAG>  FPUnit: 6 code (BP) slots and 2 literal slots >0x198 JTAG>  returns 0x06 (0041ms, 1200ms total)
T02BC 001:297 JLINK_GetNumBPUnits(Type = 0xF0)  returns 0x800 (0000ms, 1241ms total)
T02BC 001:297 JLINK_GetNumWPUnits()  returns 0x04 (0000ms, 1241ms total)
T02BC 001:300 JLINK_GetSpeed()  returns 0x7D0 (0000ms, 1241ms total)
T02BC 001:303 JLINK_ReadMemU32(0xE000E004, 0x0001 Items, ...) -- CPU_ReadMem(4 bytes @ 0xE000E004) -- Data:  01 00 00 00  returns 0x01 (0001ms, 1241ms total)
T02BC 001:304 JLINK_WriteMem(0xE0001000, 0x001C Bytes, ...) -- Data:  01 00 00 00 00 00 00 00 00 00 00 00 00 00 00 00 ... -- CPU_WriteMem(28 bytes @ 0xE0001000)  returns 0x1C (0001ms, 1242ms total)
T02BC 001:305 JLINK_ReadMem (0xE0001000, 0x001C Bytes, ...) -- CPU_ReadMem(28 bytes @ 0xE0001000) -- Data:  01 00 00 40 00 00 00 00 00 00 00 00 00 00 00 00 ...  returns 0x00 (0002ms, 1243ms total)
T02BC 001:307 JLINK_Halt()  returns 0x00 (0000ms, 1245ms total)
T02BC 001:307 JLINK_IsHalted()  returns TRUE (0000ms, 1245ms total)
T02BC 001:410 JLINK_WriteMem(0x20000000, 0x0164 Bytes, ...) -- Data:  00 BE 0A E0 0D 78 2D 06 68 40 08 24 40 00 00 D3 ... -- CPU_WriteMem(356 bytes @ 0x20000000)  returns 0x164 (0004ms, 1245ms total)
T02BC 001:414 JLINK_WriteReg(R0, 0x08000000)  returns 0x00 (0000ms, 1249ms total)
T02BC 001:414 JLINK_WriteReg(R1, 0x007A1200)  returns 0x00 (0000ms, 1249ms total)
T02BC 001:414 JLINK_WriteReg(R2, 0x00000001)  returns 0x00 (0000ms, 1249ms total)
T02BC 001:414 JLINK_WriteReg(R3, 0x00000000)  returns 0x00 (0000ms, 1249ms total)
T02BC 001:414 JLINK_WriteReg(R4, 0x00000000)  returns 0x00 (0000ms, 1249ms total)
T02BC 001:414 JLINK_WriteReg(R5, 0x00000000)  returns 0x00 (0000ms, 1249ms total)
T02BC 001:414 JLINK_WriteReg(R6, 0x00000000)  returns 0x00 (0000ms, 1249ms total)
T02BC 001:414 JLINK_WriteReg(R7, 0x00000000)  returns 0x00 (0000ms, 1249ms total)
T02BC 001:414 JLINK_WriteReg(R8, 0x00000000)  returns 0x00 (0000ms, 1249ms total)
T02BC 001:414 JLINK_WriteReg(R9, 0x20000160)  returns 0x00 (0000ms, 1249ms total)
T02BC 001:414 JLINK_WriteReg(R10, 0x00000000)  returns 0x00 (0000ms, 1249ms total)
T02BC 001:414 JLINK_WriteReg(R11, 0x00000000)  returns 0x00 (0000ms, 1249ms total)
T02BC 001:414 JLINK_WriteReg(R12, 0x00000000)  returns 0x00 (0000ms, 1249ms total)
T02BC 001:414 JLINK_WriteReg(R13, 0x20000800)  returns 0x00 (0000ms, 1249ms total)
T02BC 001:414 JLINK_WriteReg(R14, 0x20000001)  returns 0x00 (0000ms, 1249ms total)
T02BC 001:414 JLINK_WriteReg(R15, 0x20000038)  returns 0x00 (0000ms, 1249ms total)
T02BC 001:414 JLINK_WriteReg(XPSR, 0x01000000)  returns 0x00 (0000ms, 1249ms total)
T02BC 001:414 JLINK_WriteReg(MSP, 0x20000800)  returns 0x00 (0000ms, 1249ms total)
T02BC 001:414 JLINK_WriteReg(PSP, 0x20000800)  returns 0x00 (0000ms, 1249ms total)
T02BC 001:414 JLINK_WriteReg(CFBP, 0x00000000)  returns 0x00 (0000ms, 1249ms total)
T02BC 001:414 JLINK_SetBPEx(Addr = 0x20000000, Type = 0xFFFFFFF2) -- CPU_ReadMem(2 bytes @ 0x20000000)  returns 0x00000001 (0001ms, 1249ms total)
T02BC 001:415 JLINK_Go() -- CPU_WriteMem(2 bytes @ 0x20000000) -- CPU_WriteMem(4 bytes @ 0xE0002008) -- CPU_WriteMem(4 bytes @ 0xE000200C) -- CPU_WriteMem(4 bytes @ 0xE0002010) -- CPU_WriteMem(4 bytes @ 0xE0002014) -- CPU_WriteMem(4 bytes @ 0xE0002018) -- CPU_WriteMem(4 bytes @ 0xE000201C) (0012ms, 1250ms total)
T02BC 001:427 JLINK_IsHalted() -- CPU_ReadMem(2 bytes @ 0x20000000)  returns TRUE (0008ms, 1262ms total)
T02BC 001:435 JLINK_ReadReg(R15)  returns 0x20000000 (0000ms, 1262ms total)
T02BC 001:435 JLINK_ClrBPEx(BPHandle = 0x00000001)  returns 0x00 (0000ms, 1262ms total)
T02BC 001:435 JLINK_ReadReg(R0)  returns 0x00000000 (0000ms, 1262ms total)
T02BC 001:486 JLINK_WriteReg(R0, 0x08000000)  returns 0x00 (0000ms, 1262ms total)
T02BC 001:486 JLINK_WriteReg(R1, 0x007A1200)  returns 0x00 (0000ms, 1262ms total)
T02BC 001:486 JLINK_WriteReg(R2, 0x00000001)  returns 0x00 (0000ms, 1262ms total)
T02BC 001:486 JLINK_WriteReg(R3, 0x00000000)  returns 0x00 (0000ms, 1262ms total)
T02BC 001:486 JLINK_WriteReg(R4, 0x00000000)  returns 0x00 (0000ms, 1262ms total)
T02BC 001:486 JLINK_WriteReg(R5, 0x00000000)  returns 0x00 (0000ms, 1262ms total)
T02BC 001:486 JLINK_WriteReg(R6, 0x00000000)  returns 0x00 (0000ms, 1262ms total)
T02BC 001:486 JLINK_WriteReg(R7, 0x00000000)  returns 0x00 (0000ms, 1262ms total)
T02BC 001:486 JLINK_WriteReg(R8, 0x00000000)  returns 0x00 (0000ms, 1262ms total)
T02BC 001:486 JLINK_WriteReg(R9, 0x20000160)  returns 0x00 (0001ms, 1262ms total)
T02BC 001:487 JLINK_WriteReg(R10, 0x00000000)  returns 0x00 (0000ms, 1263ms total)
T02BC 001:487 JLINK_WriteReg(R11, 0x00000000)  returns 0x00 (0000ms, 1263ms total)
T02BC 001:487 JLINK_WriteReg(R12, 0x00000000)  returns 0x00 (0000ms, 1263ms total)
T02BC 001:487 JLINK_WriteReg(R13, 0x20000800)  returns 0x00 (0000ms, 1263ms total)
T02BC 001:487 JLINK_WriteReg(R14, 0x20000001)  returns 0x00 (0000ms, 1263ms total)
T02BC 001:487 JLINK_WriteReg(R15, 0x2000007C)  returns 0x00 (0000ms, 1263ms total)
T02BC 001:487 JLINK_WriteReg(XPSR, 0x01000000)  returns 0x00 (0000ms, 1263ms total)
T02BC 001:487 JLINK_WriteReg(MSP, 0x20000800)  returns 0x00 (0000ms, 1263ms total)
T02BC 001:487 JLINK_WriteReg(PSP, 0x20000800)  returns 0x00 (0000ms, 1263ms total)
T02BC 001:487 JLINK_WriteReg(CFBP, 0x00000000)  returns 0x00 (0000ms, 1263ms total)
T02BC 001:487 JLINK_SetBPEx(Addr = 0x20000000, Type = 0xFFFFFFF2)  returns 0x00000002 (0000ms, 1263ms total)
T02BC 001:487 JLINK_Go() -- CPU_WriteMem(4 bytes @ 0xE0002008) -- CPU_WriteMem(4 bytes @ 0xE000200C) -- CPU_WriteMem(4 bytes @ 0xE0002010) -- CPU_WriteMem(4 bytes @ 0xE0002014) -- CPU_WriteMem(4 bytes @ 0xE0002018) -- CPU_WriteMem(4 bytes @ 0xE000201C) (0010ms, 1263ms total)
T02BC 001:497 JLINK_IsHalted()  returns FALSE (0001ms, 1273ms total)
T02BC 001:548 JLINK_IsHalted() -- CPU_ReadMem(2 bytes @ 0x20000000)  returns TRUE (0007ms, 1273ms total)
T02BC 001:555 JLINK_ReadReg(R15)  returns 0x20000000 (0000ms, 1273ms total)
T02BC 001:555 JLINK_ClrBPEx(BPHandle = 0x00000002)  returns 0x00 (0000ms, 1273ms total)
T02BC 001:555 JLINK_ReadReg(R0)  returns 0x00000000 (0000ms, 1273ms total)
T02BC 001:609 JLINK_WriteReg(R0, 0x00000001)  returns 0x00 (0000ms, 1273ms total)
T02BC 001:609 JLINK_WriteReg(R1, 0x007A1200)  returns 0x00 (0000ms, 1273ms total)
T02BC 001:609 JLINK_WriteReg(R2, 0x00000001)  returns 0x00 (0000ms, 1273ms total)
T02BC 001:609 JLINK_WriteReg(R3, 0x00000000)  returns 0x00 (0000ms, 1273ms total)
T02BC 001:609 JLINK_WriteReg(R4, 0x00000000)  returns 0x00 (0000ms, 1273ms total)
T02BC 001:609 JLINK_WriteReg(R5, 0x00000000)  returns 0x00 (0000ms, 1273ms total)
T02BC 001:609 JLINK_WriteReg(R6, 0x00000000)  returns 0x00 (0000ms, 1273ms total)
T02BC 001:609 JLINK_WriteReg(R7, 0x00000000)  returns 0x00 (0000ms, 1273ms total)
T02BC 001:609 JLINK_WriteReg(R8, 0x00000000)  returns 0x00 (0000ms, 1273ms total)
T02BC 001:609 JLINK_WriteReg(R9, 0x20000160)  returns 0x00 (0000ms, 1273ms total)
T02BC 001:609 JLINK_WriteReg(R10, 0x00000000)  returns 0x00 (0000ms, 1273ms total)
T02BC 001:609 JLINK_WriteReg(R11, 0x00000000)  returns 0x00 (0000ms, 1273ms total)
T02BC 001:609 JLINK_WriteReg(R12, 0x00000000)  returns 0x00 (0000ms, 1273ms total)
T02BC 001:609 JLINK_WriteReg(R13, 0x20000800)  returns 0x00 (0000ms, 1273ms total)
T02BC 001:609 JLINK_WriteReg(R14, 0x20000001)  returns 0x00 (0000ms, 1273ms total)
T02BC 001:609 JLINK_WriteReg(R15, 0x2000006A)  returns 0x00 (0000ms, 1273ms total)
T02BC 001:609 JLINK_WriteReg(XPSR, 0x01000000)  returns 0x00 (0000ms, 1273ms total)
T02BC 001:609 JLINK_WriteReg(MSP, 0x20000800)  returns 0x00 (0000ms, 1273ms total)
T02BC 001:609 JLINK_WriteReg(PSP, 0x20000800)  returns 0x00 (0000ms, 1273ms total)
T02BC 001:609 JLINK_WriteReg(CFBP, 0x00000000)  returns 0x00 (0000ms, 1273ms total)
T02BC 001:609 JLINK_SetBPEx(Addr = 0x20000000, Type = 0xFFFFFFF2)  returns 0x00000003 (0000ms, 1273ms total)
T02BC 001:609 JLINK_Go() -- CPU_WriteMem(4 bytes @ 0xE0002008) -- CPU_WriteMem(4 bytes @ 0xE000200C) -- CPU_WriteMem(4 bytes @ 0xE0002010) -- CPU_WriteMem(4 bytes @ 0xE0002014) -- CPU_WriteMem(4 bytes @ 0xE0002018) -- CPU_WriteMem(4 bytes @ 0xE000201C) (0011ms, 1273ms total)
T02BC 001:620 JLINK_IsHalted() -- CPU_ReadMem(2 bytes @ 0x20000000)  returns TRUE (0007ms, 1284ms total)
T02BC 001:627 JLINK_ReadReg(R15)  returns 0x20000000 (0000ms, 1284ms total)
T02BC 001:627 JLINK_ClrBPEx(BPHandle = 0x00000003)  returns 0x00 (0000ms, 1284ms total)
T02BC 001:627 JLINK_ReadReg(R0)  returns 0x00000000 (0000ms, 1284ms total)
T02BC 001:632 JLINK_WriteMem(0x20000000, 0x0164 Bytes, ...) -- Data:  00 BE 0A E0 0D 78 2D 06 68 40 08 24 40 00 00 D3 ... -- CPU_WriteMem(356 bytes @ 0x20000000)  returns 0x164 (0004ms, 1284ms total)
T02BC 001:636 JLINK_WriteReg(R0, 0x08000000)  returns 0x00 (0000ms, 1288ms total)
T02BC 001:636 JLINK_WriteReg(R1, 0x007A1200)  returns 0x00 (0000ms, 1288ms total)
T02BC 001:636 JLINK_WriteReg(R2, 0x00000002)  returns 0x00 (0000ms, 1288ms total)
T02BC 001:636 JLINK_WriteReg(R3, 0x00000000)  returns 0x00 (0000ms, 1288ms total)
T02BC 001:636 JLINK_WriteReg(R4, 0x00000000)  returns 0x00 (0000ms, 1288ms total)
T02BC 001:636 JLINK_WriteReg(R5, 0x00000000)  returns 0x00 (0000ms, 1288ms total)
T02BC 001:636 JLINK_WriteReg(R6, 0x00000000)  returns 0x00 (0000ms, 1288ms total)
T02BC 001:636 JLINK_WriteReg(R7, 0x00000000)  returns 0x00 (0000ms, 1288ms total)
T02BC 001:636 JLINK_WriteReg(R8, 0x00000000)  returns 0x00 (0000ms, 1288ms total)
T02BC 001:636 JLINK_WriteReg(R9, 0x20000160)  returns 0x00 (0000ms, 1288ms total)
T02BC 001:636 JLINK_WriteReg(R10, 0x00000000)  returns 0x00 (0000ms, 1288ms total)
T02BC 001:636 JLINK_WriteReg(R11, 0x00000000)  returns 0x00 (0000ms, 1288ms total)
T02BC 001:636 JLINK_WriteReg(R12, 0x00000000)  returns 0x00 (0000ms, 1288ms total)
T02BC 001:636 JLINK_WriteReg(R13, 0x20000800)  returns 0x00 (0000ms, 1288ms total)
T02BC 001:636 JLINK_WriteReg(R14, 0x20000001)  returns 0x00 (0000ms, 1288ms total)
T02BC 001:636 JLINK_WriteReg(R15, 0x20000038)  returns 0x00 (0000ms, 1288ms total)
T02BC 001:636 JLINK_WriteReg(XPSR, 0x01000000)  returns 0x00 (0000ms, 1288ms total)
T02BC 001:636 JLINK_WriteReg(MSP, 0x20000800)  returns 0x00 (0000ms, 1288ms total)
T02BC 001:636 JLINK_WriteReg(PSP, 0x20000800)  returns 0x00 (0000ms, 1288ms total)
T02BC 001:636 JLINK_WriteReg(CFBP, 0x00000000)  returns 0x00 (0000ms, 1288ms total)
T02BC 001:636 JLINK_SetBPEx(Addr = 0x20000000, Type = 0xFFFFFFF2) -- CPU_ReadMem(2 bytes @ 0x20000000)  returns 0x00000004 (0002ms, 1288ms total)
T02BC 001:638 JLINK_Go() -- CPU_WriteMem(2 bytes @ 0x20000000) -- CPU_WriteMem(4 bytes @ 0xE0002008) -- CPU_WriteMem(4 bytes @ 0xE000200C) -- CPU_WriteMem(4 bytes @ 0xE0002010) -- CPU_WriteMem(4 bytes @ 0xE0002014) -- CPU_WriteMem(4 bytes @ 0xE0002018) -- CPU_WriteMem(4 bytes @ 0xE000201C) (0011ms, 1290ms total)
T02BC 001:649 JLINK_IsHalted() -- CPU_ReadMem(2 bytes @ 0x20000000)  returns TRUE (0007ms, 1301ms total)
T02BC 001:656 JLINK_ReadReg(R15)  returns 0x20000000 (0000ms, 1301ms total)
T02BC 001:656 JLINK_ClrBPEx(BPHandle = 0x00000004)  returns 0x00 (0001ms, 1301ms total)
T02BC 001:657 JLINK_ReadReg(R0)  returns 0x00000000 (0000ms, 1302ms total)
T02BC 001:657 JLINK_WriteMem(0x20000164, 0x0400 Bytes, ...) -- Data:  38 4F 00 20 01 01 00 08 05 01 00 08 17 67 00 08 ... -- CPU_WriteMem(1024 bytes @ 0x20000164)  returns 0x400 (0007ms, 1302ms total)
T02BC 001:664 JLINK_WriteReg(R0, 0x08000000)  returns 0x00 (0000ms, 1309ms total)
T02BC 001:664 JLINK_WriteReg(R1, 0x00000400)  returns 0x00 (0000ms, 1309ms total)
T02BC 001:664 JLINK_WriteReg(R2, 0x20000164)  returns 0x00 (0000ms, 1309ms total)
T02BC 001:664 JLINK_WriteReg(R3, 0x00000000)  returns 0x00 (0000ms, 1309ms total)
T02BC 001:664 JLINK_WriteReg(R4, 0x00000000)  returns 0x00 (0000ms, 1309ms total)
T02BC 001:664 JLINK_WriteReg(R5, 0x00000000)  returns 0x00 (0000ms, 1309ms total)
T02BC 001:664 JLINK_WriteReg(R6, 0x00000000)  returns 0x00 (0000ms, 1309ms total)
T02BC 001:664 JLINK_WriteReg(R7, 0x00000000)  returns 0x00 (0000ms, 1309ms total)
T02BC 001:664 JLINK_WriteReg(R8, 0x00000000)  returns 0x00 (0000ms, 1309ms total)
T02BC 001:664 JLINK_WriteReg(R9, 0x20000160)  returns 0x00 (0000ms, 1309ms total)
T02BC 001:664 JLINK_WriteReg(R10, 0x00000000)  returns 0x00 (0000ms, 1309ms total)
T02BC 001:664 JLINK_WriteReg(R11, 0x00000000)  returns 0x00 (0000ms, 1309ms total)
T02BC 001:664 JLINK_WriteReg(R12, 0x00000000)  returns 0x00 (0000ms, 1309ms total)
T02BC 001:664 JLINK_WriteReg(R13, 0x20000800)  returns 0x00 (0000ms, 1309ms total)
T02BC 001:664 JLINK_WriteReg(R14, 0x20000001)  returns 0x00 (0000ms, 1309ms total)
T02BC 001:664 JLINK_WriteReg(R15, 0x200000F4)  returns 0x00 (0000ms, 1309ms total)
T02BC 001:664 JLINK_WriteReg(XPSR, 0x01000000)  returns 0x00 (0000ms, 1309ms total)
T02BC 001:664 JLINK_WriteReg(MSP, 0x20000800)  returns 0x00 (0000ms, 1309ms total)
T02BC 001:664 JLINK_WriteReg(PSP, 0x20000800)  returns 0x00 (0000ms, 1309ms total)
T02BC 001:665 JLINK_WriteReg(CFBP, 0x00000000)  returns 0x00 (0000ms, 1310ms total)
T02BC 001:665 JLINK_SetBPEx(Addr = 0x20000000, Type = 0xFFFFFFF2)  returns 0x00000005 (0000ms, 1310ms total)
T02BC 001:665 JLINK_Go() -- CPU_WriteMem(4 bytes @ 0xE0002008) -- CPU_WriteMem(4 bytes @ 0xE000200C) -- CPU_WriteMem(4 bytes @ 0xE0002010) -- CPU_WriteMem(4 bytes @ 0xE0002014) -- CPU_WriteMem(4 bytes @ 0xE0002018) -- CPU_WriteMem(4 bytes @ 0xE000201C) (0009ms, 1310ms total)
T02BC 001:674 JLINK_IsHalted()  returns FALSE (0001ms, 1319ms total)
T02BC 001:726 JLINK_IsHalted() -- CPU_ReadMem(2 bytes @ 0x20000000)  returns TRUE (0008ms, 1319ms total)
T02BC 001:734 JLINK_ReadReg(R15)  returns 0x20000000 (0000ms, 1319ms total)
T02BC 001:734 JLINK_ClrBPEx(BPHandle = 0x00000005)  returns 0x00 (0000ms, 1319ms total)
T02BC 001:734 JLINK_ReadReg(R0)  returns 0x00000000 (0000ms, 1319ms total)
T02BC 001:734 JLINK_WriteMem(0x20000164, 0x0400 Bytes, ...) -- Data:  6B 5C C5 68 B5 FB F3 F5 05 61 30 BD 29 B1 2E 4A ... -- CPU_WriteMem(1024 bytes @ 0x20000164)  returns 0x400 (0008ms, 1319ms total)
T02BC 001:742 JLINK_WriteReg(R0, 0x08000400)  returns 0x00 (0000ms, 1327ms total)
T02BC 001:742 JLINK_WriteReg(R1, 0x00000400)  returns 0x00 (0000ms, 1327ms total)
T02BC 001:742 JLINK_WriteReg(R2, 0x20000164)  returns 0x00 (0000ms, 1327ms total)
T02BC 001:742 JLINK_WriteReg(R3, 0x00000000)  returns 0x00 (0000ms, 1327ms total)
T02BC 001:742 JLINK_WriteReg(R4, 0x00000000)  returns 0x00 (0000ms, 1327ms total)
T02BC 001:742 JLINK_WriteReg(R5, 0x00000000)  returns 0x00 (0000ms, 1327ms total)
T02BC 001:742 JLINK_WriteReg(R6, 0x00000000)  returns 0x00 (0000ms, 1327ms total)
T02BC 001:742 JLINK_WriteReg(R7, 0x00000000)  returns 0x00 (0000ms, 1327ms total)
T02BC 001:742 JLINK_WriteReg(R8, 0x00000000)  returns 0x00 (0000ms, 1327ms total)
T02BC 001:742 JLINK_WriteReg(R9, 0x20000160)  returns 0x00 (0000ms, 1327ms total)
T02BC 001:742 JLINK_WriteReg(R10, 0x00000000)  returns 0x00 (0000ms, 1327ms total)
T02BC 001:742 JLINK_WriteReg(R11, 0x00000000)  returns 0x00 (0000ms, 1327ms total)
T02BC 001:742 JLINK_WriteReg(R12, 0x00000000)  returns 0x00 (0000ms, 1327ms total)
T02BC 001:742 JLINK_WriteReg(R13, 0x20000800)  returns 0x00 (0000ms, 1327ms total)
T02BC 001:742 JLINK_WriteReg(R14, 0x20000001)  returns 0x00 (0000ms, 1327ms total)
T02BC 001:742 JLINK_WriteReg(R15, 0x200000F4)  returns 0x00 (0000ms, 1327ms total)
T02BC 001:742 JLINK_WriteReg(XPSR, 0x01000000)  returns 0x00 (0000ms, 1327ms total)
T02BC 001:742 JLINK_WriteReg(MSP, 0x20000800)  returns 0x00 (0000ms, 1327ms total)
T02BC 001:742 JLINK_WriteReg(PSP, 0x20000800)  returns 0x00 (0000ms, 1327ms total)
T02BC 001:742 JLINK_WriteReg(CFBP, 0x00000000)  returns 0x00 (0000ms, 1327ms total)
T02BC 001:742 JLINK_SetBPEx(Addr = 0x20000000, Type = 0xFFFFFFF2)  returns 0x00000006 (0000ms, 1327ms total)
T02BC 001:742 JLINK_Go() -- CPU_WriteMem(4 bytes @ 0xE0002008) -- CPU_WriteMem(4 bytes @ 0xE000200C) -- CPU_WriteMem(4 bytes @ 0xE0002010) -- CPU_WriteMem(4 bytes @ 0xE0002014) -- CPU_WriteMem(4 bytes @ 0xE0002018) -- CPU_WriteMem(4 bytes @ 0xE000201C) (0011ms, 1327ms total)
T02BC 001:753 JLINK_IsHalted()  returns FALSE (0001ms, 1338ms total)
T02BC 001:804 JLINK_IsHalted() -- CPU_ReadMem(2 bytes @ 0x20000000)  returns TRUE (0007ms, 1338ms total)
T02BC 001:811 JLINK_ReadReg(R15)  returns 0x20000000 (0000ms, 1338ms total)
T02BC 001:811 JLINK_ClrBPEx(BPHandle = 0x00000006)  returns 0x00 (0000ms, 1338ms total)
T02BC 001:811 JLINK_ReadReg(R0)  returns 0x00000000 (0000ms, 1338ms total)
T02BC 001:813 JLINK_WriteMem(0x20000164, 0x0400 Bytes, ...) -- Data:  10 B5 04 46 FB 49 60 1A 8C 42 45 D0 0C DC B4 F1 ... -- CPU_WriteMem(1024 bytes @ 0x20000164)  returns 0x400 (0008ms, 1338ms total)
T02BC 001:821 JLINK_WriteReg(R0, 0x08000800)  returns 0x00 (0000ms, 1346ms total)
T02BC 001:821 JLINK_WriteReg(R1, 0x00000400)  returns 0x00 (0000ms, 1346ms total)
T02BC 001:821 JLINK_WriteReg(R2, 0x20000164)  returns 0x00 (0000ms, 1346ms total)
T02BC 001:821 JLINK_WriteReg(R3, 0x00000000)  returns 0x00 (0000ms, 1346ms total)
T02BC 001:821 JLINK_WriteReg(R4, 0x00000000)  returns 0x00 (0000ms, 1346ms total)
T02BC 001:821 JLINK_WriteReg(R5, 0x00000000)  returns 0x00 (0000ms, 1346ms total)
T02BC 001:821 JLINK_WriteReg(R6, 0x00000000)  returns 0x00 (0000ms, 1346ms total)
T02BC 001:821 JLINK_WriteReg(R7, 0x00000000)  returns 0x00 (0000ms, 1346ms total)
T02BC 001:821 JLINK_WriteReg(R8, 0x00000000)  returns 0x00 (0000ms, 1346ms total)
T02BC 001:821 JLINK_WriteReg(R9, 0x20000160)  returns 0x00 (0000ms, 1346ms total)
T02BC 001:821 JLINK_WriteReg(R10, 0x00000000)  returns 0x00 (0000ms, 1346ms total)
T02BC 001:821 JLINK_WriteReg(R11, 0x00000000)  returns 0x00 (0000ms, 1346ms total)
T02BC 001:821 JLINK_WriteReg(R12, 0x00000000)  returns 0x00 (0000ms, 1346ms total)
T02BC 001:821 JLINK_WriteReg(R13, 0x20000800)  returns 0x00 (0000ms, 1346ms total)
T02BC 001:821 JLINK_WriteReg(R14, 0x20000001)  returns 0x00 (0000ms, 1346ms total)
T02BC 001:821 JLINK_WriteReg(R15, 0x200000F4)  returns 0x00 (0000ms, 1346ms total)
T02BC 001:821 JLINK_WriteReg(XPSR, 0x01000000)  returns 0x00 (0000ms, 1346ms total)
T02BC 001:821 JLINK_WriteReg(MSP, 0x20000800)  returns 0x00 (0000ms, 1346ms total)
T02BC 001:821 JLINK_WriteReg(PSP, 0x20000800)  returns 0x00 (0000ms, 1346ms total)
T02BC 001:821 JLINK_WriteReg(CFBP, 0x00000000)  returns 0x00 (0000ms, 1346ms total)
T02BC 001:821 JLINK_SetBPEx(Addr = 0x20000000, Type = 0xFFFFFFF2)  returns 0x00000007 (0000ms, 1346ms total)
T02BC 001:821 JLINK_Go() -- CPU_WriteMem(4 bytes @ 0xE0002008) -- CPU_WriteMem(4 bytes @ 0xE000200C) -- CPU_WriteMem(4 bytes @ 0xE0002010) -- CPU_WriteMem(4 bytes @ 0xE0002014) -- CPU_WriteMem(4 bytes @ 0xE0002018) -- CPU_WriteMem(4 bytes @ 0xE000201C) (0010ms, 1346ms total)
T02BC 001:831 JLINK_IsHalted()  returns FALSE (0002ms, 1356ms total)
T02BC 001:883 JLINK_IsHalted() -- CPU_ReadMem(2 bytes @ 0x20000000)  returns TRUE (0007ms, 1356ms total)
T02BC 001:890 JLINK_ReadReg(R15)  returns 0x20000000 (0000ms, 1356ms total)
T02BC 001:890 JLINK_ClrBPEx(BPHandle = 0x00000007)  returns 0x00 (0001ms, 1356ms total)
T02BC 001:891 JLINK_ReadReg(R0)  returns 0x00000000 (0000ms, 1357ms total)
T02BC 001:891 JLINK_WriteMem(0x20000164, 0x0400 Bytes, ...) -- Data:  00 34 01 40 02 8B 4F F6 F3 73 1A 40 02 83 02 8B ... -- CPU_WriteMem(1024 bytes @ 0x20000164)  returns 0x400 (0008ms, 1357ms total)
T02BC 001:899 JLINK_WriteReg(R0, 0x08000C00)  returns 0x00 (0000ms, 1365ms total)
T02BC 001:899 JLINK_WriteReg(R1, 0x00000400)  returns 0x00 (0000ms, 1365ms total)
T02BC 001:899 JLINK_WriteReg(R2, 0x20000164)  returns 0x00 (0000ms, 1365ms total)
T02BC 001:899 JLINK_WriteReg(R3, 0x00000000)  returns 0x00 (0000ms, 1365ms total)
T02BC 001:899 JLINK_WriteReg(R4, 0x00000000)  returns 0x00 (0000ms, 1365ms total)
T02BC 001:899 JLINK_WriteReg(R5, 0x00000000)  returns 0x00 (0000ms, 1365ms total)
T02BC 001:899 JLINK_WriteReg(R6, 0x00000000)  returns 0x00 (0000ms, 1365ms total)
T02BC 001:899 JLINK_WriteReg(R7, 0x00000000)  returns 0x00 (0000ms, 1365ms total)
T02BC 001:899 JLINK_WriteReg(R8, 0x00000000)  returns 0x00 (0000ms, 1365ms total)
T02BC 001:899 JLINK_WriteReg(R9, 0x20000160)  returns 0x00 (0000ms, 1365ms total)
T02BC 001:899 JLINK_WriteReg(R10, 0x00000000)  returns 0x00 (0000ms, 1365ms total)
T02BC 001:899 JLINK_WriteReg(R11, 0x00000000)  returns 0x00 (0000ms, 1365ms total)
T02BC 001:899 JLINK_WriteReg(R12, 0x00000000)  returns 0x00 (0000ms, 1365ms total)
T02BC 001:899 JLINK_WriteReg(R13, 0x20000800)  returns 0x00 (0000ms, 1365ms total)
T02BC 001:899 JLINK_WriteReg(R14, 0x20000001)  returns 0x00 (0000ms, 1365ms total)
T02BC 001:899 JLINK_WriteReg(R15, 0x200000F4)  returns 0x00 (0000ms, 1365ms total)
T02BC 001:899 JLINK_WriteReg(XPSR, 0x01000000)  returns 0x00 (0000ms, 1365ms total)
T02BC 001:899 JLINK_WriteReg(MSP, 0x20000800)  returns 0x00 (0000ms, 1365ms total)
T02BC 001:899 JLINK_WriteReg(PSP, 0x20000800)  returns 0x00 (0000ms, 1365ms total)
T02BC 001:899 JLINK_WriteReg(CFBP, 0x00000000)  returns 0x00 (0000ms, 1365ms total)
T02BC 001:899 JLINK_SetBPEx(Addr = 0x20000000, Type = 0xFFFFFFF2)  returns 0x00000008 (0000ms, 1365ms total)
T02BC 001:899 JLINK_Go() -- CPU_WriteMem(4 bytes @ 0xE0002008) -- CPU_WriteMem(4 bytes @ 0xE000200C) -- CPU_WriteMem(4 bytes @ 0xE0002010) -- CPU_WriteMem(4 bytes @ 0xE0002014) -- CPU_WriteMem(4 bytes @ 0xE0002018) -- CPU_WriteMem(4 bytes @ 0xE000201C) (0011ms, 1365ms total)
T02BC 001:910 JLINK_IsHalted()  returns FALSE (0001ms, 1376ms total)
T02BC 001:962 JLINK_IsHalted() -- CPU_ReadMem(2 bytes @ 0x20000000)  returns TRUE (0007ms, 1376ms total)
T02BC 001:969 JLINK_ReadReg(R15)  returns 0x20000000 (0000ms, 1376ms total)
T02BC 001:969 JLINK_ClrBPEx(BPHandle = 0x00000008)  returns 0x00 (0000ms, 1376ms total)
T02BC 001:969 JLINK_ReadReg(R0)  returns 0x00000000 (0000ms, 1376ms total)
T02BC 001:969 JLINK_WriteMem(0x20000164, 0x0400 Bytes, ...) -- Data:  00 21 01 8B 4F F6 F7 73 19 40 11 43 01 83 70 47 ... -- CPU_WriteMem(1024 bytes @ 0x20000164)  returns 0x400 (0008ms, 1376ms total)
T02BC 001:977 JLINK_WriteReg(R0, 0x08001000)  returns 0x00 (0000ms, 1384ms total)
T02BC 001:977 JLINK_WriteReg(R1, 0x00000400)  returns 0x00 (0000ms, 1384ms total)
T02BC 001:977 JLINK_WriteReg(R2, 0x20000164)  returns 0x00 (0000ms, 1384ms total)
T02BC 001:977 JLINK_WriteReg(R3, 0x00000000)  returns 0x00 (0000ms, 1384ms total)
T02BC 001:977 JLINK_WriteReg(R4, 0x00000000)  returns 0x00 (0000ms, 1384ms total)
T02BC 001:977 JLINK_WriteReg(R5, 0x00000000)  returns 0x00 (0000ms, 1384ms total)
T02BC 001:977 JLINK_WriteReg(R6, 0x00000000)  returns 0x00 (0000ms, 1384ms total)
T02BC 001:977 JLINK_WriteReg(R7, 0x00000000)  returns 0x00 (0000ms, 1384ms total)
T02BC 001:977 JLINK_WriteReg(R8, 0x00000000)  returns 0x00 (0000ms, 1384ms total)
T02BC 001:977 JLINK_WriteReg(R9, 0x20000160)  returns 0x00 (0000ms, 1384ms total)
T02BC 001:977 JLINK_WriteReg(R10, 0x00000000)  returns 0x00 (0000ms, 1384ms total)
T02BC 001:977 JLINK_WriteReg(R11, 0x00000000)  returns 0x00 (0000ms, 1384ms total)
T02BC 001:977 JLINK_WriteReg(R12, 0x00000000)  returns 0x00 (0000ms, 1384ms total)
T02BC 001:977 JLINK_WriteReg(R13, 0x20000800)  returns 0x00 (0000ms, 1384ms total)
T02BC 001:977 JLINK_WriteReg(R14, 0x20000001)  returns 0x00 (0000ms, 1384ms total)
T02BC 001:977 JLINK_WriteReg(R15, 0x200000F4)  returns 0x00 (0000ms, 1384ms total)
T02BC 001:977 JLINK_WriteReg(XPSR, 0x01000000)  returns 0x00 (0000ms, 1384ms total)
T02BC 001:977 JLINK_WriteReg(MSP, 0x20000800)  returns 0x00 (0000ms, 1384ms total)
T02BC 001:977 JLINK_WriteReg(PSP, 0x20000800)  returns 0x00 (0000ms, 1384ms total)
T02BC 001:977 JLINK_WriteReg(CFBP, 0x00000000)  returns 0x00 (0000ms, 1384ms total)
T02BC 001:977 JLINK_SetBPEx(Addr = 0x20000000, Type = 0xFFFFFFF2)  returns 0x00000009 (0000ms, 1384ms total)
T02BC 001:977 JLINK_Go() -- CPU_WriteMem(4 bytes @ 0xE0002008) -- CPU_WriteMem(4 bytes @ 0xE000200C) -- CPU_WriteMem(4 bytes @ 0xE0002010) -- CPU_WriteMem(4 bytes @ 0xE0002014) -- CPU_WriteMem(4 bytes @ 0xE0002018) -- CPU_WriteMem(4 bytes @ 0xE000201C) (0011ms, 1384ms total)
T02BC 001:988 JLINK_IsHalted()  returns FALSE (0002ms, 1395ms total)
T02BC 002:041 JLINK_IsHalted() -- CPU_ReadMem(2 bytes @ 0x20000000)  returns TRUE (0007ms, 1395ms total)
T02BC 002:048 JLINK_ReadReg(R15)  returns 0x20000000 (0000ms, 1395ms total)
T02BC 002:048 JLINK_ClrBPEx(BPHandle = 0x00000009)  returns 0x00 (0000ms, 1395ms total)
T02BC 002:048 JLINK_ReadReg(R0)  returns 0x00000000 (0000ms, 1395ms total)
T02BC 002:049 JLINK_WriteMem(0x20000164, 0x0400 Bytes, ...) -- Data:  00 24 A2 46 00 BF 00 BF 00 27 2F 46 2C 8A 4C F6 ... -- CPU_WriteMem(1024 bytes @ 0x20000164)  returns 0x400 (0008ms, 1395ms total)
T02BC 002:057 JLINK_WriteReg(R0, 0x08001400)  returns 0x00 (0000ms, 1403ms total)
T02BC 002:057 JLINK_WriteReg(R1, 0x00000400)  returns 0x00 (0000ms, 1403ms total)
T02BC 002:057 JLINK_WriteReg(R2, 0x20000164)  returns 0x00 (0000ms, 1403ms total)
T02BC 002:057 JLINK_WriteReg(R3, 0x00000000)  returns 0x00 (0000ms, 1403ms total)
T02BC 002:057 JLINK_WriteReg(R4, 0x00000000)  returns 0x00 (0000ms, 1403ms total)
T02BC 002:057 JLINK_WriteReg(R5, 0x00000000)  returns 0x00 (0000ms, 1403ms total)
T02BC 002:057 JLINK_WriteReg(R6, 0x00000000)  returns 0x00 (0000ms, 1403ms total)
T02BC 002:057 JLINK_WriteReg(R7, 0x00000000)  returns 0x00 (0000ms, 1403ms total)
T02BC 002:057 JLINK_WriteReg(R8, 0x00000000)  returns 0x00 (0000ms, 1403ms total)
T02BC 002:057 JLINK_WriteReg(R9, 0x20000160)  returns 0x00 (0000ms, 1403ms total)
T02BC 002:057 JLINK_WriteReg(R10, 0x00000000)  returns 0x00 (0000ms, 1403ms total)
T02BC 002:057 JLINK_WriteReg(R11, 0x00000000)  returns 0x00 (0000ms, 1403ms total)
T02BC 002:057 JLINK_WriteReg(R12, 0x00000000)  returns 0x00 (0000ms, 1403ms total)
T02BC 002:057 JLINK_WriteReg(R13, 0x20000800)  returns 0x00 (0000ms, 1403ms total)
T02BC 002:057 JLINK_WriteReg(R14, 0x20000001)  returns 0x00 (0000ms, 1403ms total)
T02BC 002:057 JLINK_WriteReg(R15, 0x200000F4)  returns 0x00 (0000ms, 1403ms total)
T02BC 002:057 JLINK_WriteReg(XPSR, 0x01000000)  returns 0x00 (0000ms, 1403ms total)
T02BC 002:057 JLINK_WriteReg(MSP, 0x20000800)  returns 0x00 (0000ms, 1403ms total)
T02BC 002:057 JLINK_WriteReg(PSP, 0x20000800)  returns 0x00 (0000ms, 1403ms total)
T02BC 002:057 JLINK_WriteReg(CFBP, 0x00000000)  returns 0x00 (0000ms, 1403ms total)
T02BC 002:057 JLINK_SetBPEx(Addr = 0x20000000, Type = 0xFFFFFFF2)  returns 0x0000000A (0000ms, 1403ms total)
T02BC 002:057 JLINK_Go() -- CPU_WriteMem(4 bytes @ 0xE0002008) -- CPU_WriteMem(4 bytes @ 0xE000200C) -- CPU_WriteMem(4 bytes @ 0xE0002010) -- CPU_WriteMem(4 bytes @ 0xE0002014) -- CPU_WriteMem(4 bytes @ 0xE0002018) -- CPU_WriteMem(4 bytes @ 0xE000201C) (0011ms, 1403ms total)
T02BC 002:068 JLINK_IsHalted()  returns FALSE (0001ms, 1414ms total)
T02BC 002:120 JLINK_IsHalted() -- CPU_ReadMem(2 bytes @ 0x20000000)  returns TRUE (0007ms, 1414ms total)
T02BC 002:129 JLINK_ReadReg(R15)  returns 0x20000000 (0000ms, 1414ms total)
T02BC 002:129 JLINK_ClrBPEx(BPHandle = 0x0000000A)  returns 0x00 (0000ms, 1414ms total)
T02BC 002:129 JLINK_ReadReg(R0)  returns 0x00000000 (0000ms, 1414ms total)
T02BC 002:129 JLINK_WriteMem(0x20000164, 0x0400 Bytes, ...) -- Data:  36 49 01 43 36 4A 11 60 70 47 70 B5 00 21 00 23 ... -- CPU_WriteMem(1024 bytes @ 0x20000164)  returns 0x400 (0007ms, 1414ms total)
T02BC 002:136 JLINK_WriteReg(R0, 0x08001800)  returns 0x00 (0000ms, 1421ms total)
T02BC 002:136 JLINK_WriteReg(R1, 0x00000400)  returns 0x00 (0000ms, 1421ms total)
T02BC 002:136 JLINK_WriteReg(R2, 0x20000164)  returns 0x00 (0000ms, 1421ms total)
T02BC 002:136 JLINK_WriteReg(R3, 0x00000000)  returns 0x00 (0000ms, 1421ms total)
T02BC 002:136 JLINK_WriteReg(R4, 0x00000000)  returns 0x00 (0000ms, 1421ms total)
T02BC 002:136 JLINK_WriteReg(R5, 0x00000000)  returns 0x00 (0000ms, 1421ms total)
T02BC 002:136 JLINK_WriteReg(R6, 0x00000000)  returns 0x00 (0000ms, 1421ms total)
T02BC 002:136 JLINK_WriteReg(R7, 0x00000000)  returns 0x00 (0000ms, 1421ms total)
T02BC 002:136 JLINK_WriteReg(R8, 0x00000000)  returns 0x00 (0000ms, 1421ms total)
T02BC 002:136 JLINK_WriteReg(R9, 0x20000160)  returns 0x00 (0000ms, 1421ms total)
T02BC 002:136 JLINK_WriteReg(R10, 0x00000000)  returns 0x00 (0000ms, 1421ms total)
T02BC 002:136 JLINK_WriteReg(R11, 0x00000000)  returns 0x00 (0000ms, 1421ms total)
T02BC 002:136 JLINK_WriteReg(R12, 0x00000000)  returns 0x00 (0000ms, 1421ms total)
T02BC 002:136 JLINK_WriteReg(R13, 0x20000800)  returns 0x00 (0000ms, 1421ms total)
T02BC 002:136 JLINK_WriteReg(R14, 0x20000001)  returns 0x00 (0000ms, 1421ms total)
T02BC 002:136 JLINK_WriteReg(R15, 0x200000F4)  returns 0x00 (0000ms, 1421ms total)
T02BC 002:136 JLINK_WriteReg(XPSR, 0x01000000)  returns 0x00 (0000ms, 1421ms total)
T02BC 002:136 JLINK_WriteReg(MSP, 0x20000800)  returns 0x00 (0000ms, 1421ms total)
T02BC 002:136 JLINK_WriteReg(PSP, 0x20000800)  returns 0x00 (0000ms, 1421ms total)
T02BC 002:136 JLINK_WriteReg(CFBP, 0x00000000)  returns 0x00 (0000ms, 1421ms total)
T02BC 002:136 JLINK_SetBPEx(Addr = 0x20000000, Type = 0xFFFFFFF2)  returns 0x0000000B (0000ms, 1421ms total)
T02BC 002:136 JLINK_Go() -- CPU_WriteMem(4 bytes @ 0xE0002008) -- CPU_WriteMem(4 bytes @ 0xE000200C) -- CPU_WriteMem(4 bytes @ 0xE0002010) -- CPU_WriteMem(4 bytes @ 0xE0002014) -- CPU_WriteMem(4 bytes @ 0xE0002018) -- CPU_WriteMem(4 bytes @ 0xE000201C) (0010ms, 1421ms total)
T02BC 002:146 JLINK_IsHalted()  returns FALSE (0002ms, 1431ms total)
T02BC 002:199 JLINK_IsHalted() -- CPU_ReadMem(2 bytes @ 0x20000000)  returns TRUE (0008ms, 1431ms total)
T02BC 002:207 JLINK_ReadReg(R15)  returns 0x20000000 (0000ms, 1431ms total)
T02BC 002:207 JLINK_ClrBPEx(BPHandle = 0x0000000B)  returns 0x00 (0000ms, 1431ms total)
T02BC 002:207 JLINK_ReadReg(R0)  returns 0x00000000 (0000ms, 1431ms total)
T02BC 002:208 JLINK_WriteMem(0x20000164, 0x0400 Bytes, ...) -- Data:  88 60 08 46 00 69 40 F0 10 00 08 61 FF 2E 06 D0 ... -- CPU_WriteMem(1024 bytes @ 0x20000164)  returns 0x400 (0006ms, 1431ms total)
T02BC 002:214 JLINK_WriteReg(R0, 0x08001C00)  returns 0x00 (0000ms, 1437ms total)
T02BC 002:214 JLINK_WriteReg(R1, 0x00000400)  returns 0x00 (0000ms, 1437ms total)
T02BC 002:214 JLINK_WriteReg(R2, 0x20000164)  returns 0x00 (0000ms, 1437ms total)
T02BC 002:214 JLINK_WriteReg(R3, 0x00000000)  returns 0x00 (0000ms, 1437ms total)
T02BC 002:214 JLINK_WriteReg(R4, 0x00000000)  returns 0x00 (0000ms, 1437ms total)
T02BC 002:214 JLINK_WriteReg(R5, 0x00000000)  returns 0x00 (0000ms, 1437ms total)
T02BC 002:214 JLINK_WriteReg(R6, 0x00000000)  returns 0x00 (0000ms, 1437ms total)
T02BC 002:214 JLINK_WriteReg(R7, 0x00000000)  returns 0x00 (0000ms, 1437ms total)
T02BC 002:214 JLINK_WriteReg(R8, 0x00000000)  returns 0x00 (0000ms, 1437ms total)
T02BC 002:214 JLINK_WriteReg(R9, 0x20000160)  returns 0x00 (0000ms, 1437ms total)
T02BC 002:214 JLINK_WriteReg(R10, 0x00000000)  returns 0x00 (0000ms, 1437ms total)
T02BC 002:214 JLINK_WriteReg(R11, 0x00000000)  returns 0x00 (0000ms, 1437ms total)
T02BC 002:214 JLINK_WriteReg(R12, 0x00000000)  returns 0x00 (0000ms, 1437ms total)
T02BC 002:214 JLINK_WriteReg(R13, 0x20000800)  returns 0x00 (0000ms, 1437ms total)
T02BC 002:214 JLINK_WriteReg(R14, 0x20000001)  returns 0x00 (0000ms, 1437ms total)
T02BC 002:214 JLINK_WriteReg(R15, 0x200000F4)  returns 0x00 (0000ms, 1437ms total)
T02BC 002:214 JLINK_WriteReg(XPSR, 0x01000000)  returns 0x00 (0000ms, 1437ms total)
T02BC 002:214 JLINK_WriteReg(MSP, 0x20000800)  returns 0x00 (0000ms, 1437ms total)
T02BC 002:214 JLINK_WriteReg(PSP, 0x20000800)  returns 0x00 (0000ms, 1437ms total)
T02BC 002:214 JLINK_WriteReg(CFBP, 0x00000000)  returns 0x00 (0000ms, 1437ms total)
T02BC 002:214 JLINK_SetBPEx(Addr = 0x20000000, Type = 0xFFFFFFF2)  returns 0x0000000C (0000ms, 1437ms total)
T02BC 002:214 JLINK_Go() -- CPU_WriteMem(4 bytes @ 0xE0002008) -- CPU_WriteMem(4 bytes @ 0xE000200C) -- CPU_WriteMem(4 bytes @ 0xE0002010) -- CPU_WriteMem(4 bytes @ 0xE0002014) -- CPU_WriteMem(4 bytes @ 0xE0002018) -- CPU_WriteMem(4 bytes @ 0xE000201C) (0011ms, 1437ms total)
T02BC 002:225 JLINK_IsHalted()  returns FALSE (0001ms, 1448ms total)
T02BC 002:277 JLINK_IsHalted() -- CPU_ReadMem(2 bytes @ 0x20000000)  returns TRUE (0008ms, 1448ms total)
T02BC 002:285 JLINK_ReadReg(R15)  returns 0x20000000 (0000ms, 1448ms total)
T02BC 002:285 JLINK_ClrBPEx(BPHandle = 0x0000000C)  returns 0x00 (0000ms, 1448ms total)
T02BC 002:285 JLINK_ReadReg(R0)  returns 0x00000000 (0000ms, 1448ms total)
T02BC 002:286 JLINK_WriteMem(0x20000164, 0x0400 Bytes, ...) -- Data:  08 28 CE D3 54 60 BD E8 F0 81 4F F6 FF 71 01 80 ... -- CPU_WriteMem(1024 bytes @ 0x20000164)  returns 0x400 (0008ms, 1448ms total)
T02BC 002:294 JLINK_WriteReg(R0, 0x08002000)  returns 0x00 (0000ms, 1456ms total)
T02BC 002:294 JLINK_WriteReg(R1, 0x00000400)  returns 0x00 (0000ms, 1456ms total)
T02BC 002:294 JLINK_WriteReg(R2, 0x20000164)  returns 0x00 (0000ms, 1456ms total)
T02BC 002:294 JLINK_WriteReg(R3, 0x00000000)  returns 0x00 (0000ms, 1456ms total)
T02BC 002:294 JLINK_WriteReg(R4, 0x00000000)  returns 0x00 (0000ms, 1456ms total)
T02BC 002:294 JLINK_WriteReg(R5, 0x00000000)  returns 0x00 (0000ms, 1456ms total)
T02BC 002:294 JLINK_WriteReg(R6, 0x00000000)  returns 0x00 (0000ms, 1456ms total)
T02BC 002:294 JLINK_WriteReg(R7, 0x00000000)  returns 0x00 (0000ms, 1456ms total)
T02BC 002:294 JLINK_WriteReg(R8, 0x00000000)  returns 0x00 (0000ms, 1456ms total)
T02BC 002:294 JLINK_WriteReg(R9, 0x20000160)  returns 0x00 (0000ms, 1456ms total)
T02BC 002:294 JLINK_WriteReg(R10, 0x00000000)  returns 0x00 (0000ms, 1456ms total)
T02BC 002:294 JLINK_WriteReg(R11, 0x00000000)  returns 0x00 (0000ms, 1456ms total)
T02BC 002:294 JLINK_WriteReg(R12, 0x00000000)  returns 0x00 (0000ms, 1456ms total)
T02BC 002:294 JLINK_WriteReg(R13, 0x20000800)  returns 0x00 (0000ms, 1456ms total)
T02BC 002:294 JLINK_WriteReg(R14, 0x20000001)  returns 0x00 (0000ms, 1456ms total)
T02BC 002:294 JLINK_WriteReg(R15, 0x200000F4)  returns 0x00 (0000ms, 1456ms total)
T02BC 002:294 JLINK_WriteReg(XPSR, 0x01000000)  returns 0x00 (0000ms, 1456ms total)
T02BC 002:294 JLINK_WriteReg(MSP, 0x20000800)  returns 0x00 (0000ms, 1456ms total)
T02BC 002:294 JLINK_WriteReg(PSP, 0x20000800)  returns 0x00 (0000ms, 1456ms total)
T02BC 002:294 JLINK_WriteReg(CFBP, 0x00000000)  returns 0x00 (0000ms, 1456ms total)
T02BC 002:294 JLINK_SetBPEx(Addr = 0x20000000, Type = 0xFFFFFFF2)  returns 0x0000000D (0000ms, 1456ms total)
T02BC 002:294 JLINK_Go() -- CPU_WriteMem(4 bytes @ 0xE0002008) -- CPU_WriteMem(4 bytes @ 0xE000200C) -- CPU_WriteMem(4 bytes @ 0xE0002010) -- CPU_WriteMem(4 bytes @ 0xE0002014) -- CPU_WriteMem(4 bytes @ 0xE0002018) -- CPU_WriteMem(4 bytes @ 0xE000201C) (0009ms, 1456ms total)
T02BC 002:303 JLINK_IsHalted()  returns FALSE (0001ms, 1465ms total)
T02BC 002:355 JLINK_IsHalted() -- CPU_ReadMem(2 bytes @ 0x20000000)  returns TRUE (0007ms, 1465ms total)
T02BC 002:362 JLINK_ReadReg(R15)  returns 0x20000000 (0000ms, 1465ms total)
T02BC 002:362 JLINK_ClrBPEx(BPHandle = 0x0000000D)  returns 0x00 (0000ms, 1465ms total)
T02BC 002:362 JLINK_ReadReg(R0)  returns 0x00000000 (0000ms, 1465ms total)
T02BC 002:363 JLINK_WriteMem(0x20000164, 0x0400 Bytes, ...) -- Data:  90 80 D5 80 00 BF 20 88 10 80 60 88 50 80 00 BF ... -- CPU_WriteMem(1024 bytes @ 0x20000164)  returns 0x400 (0008ms, 1465ms total)
T02BC 002:371 JLINK_WriteReg(R0, 0x08002400)  returns 0x00 (0000ms, 1473ms total)
T02BC 002:371 JLINK_WriteReg(R1, 0x00000400)  returns 0x00 (0000ms, 1473ms total)
T02BC 002:371 JLINK_WriteReg(R2, 0x20000164)  returns 0x00 (0000ms, 1473ms total)
T02BC 002:371 JLINK_WriteReg(R3, 0x00000000)  returns 0x00 (0000ms, 1473ms total)
T02BC 002:371 JLINK_WriteReg(R4, 0x00000000)  returns 0x00 (0000ms, 1473ms total)
T02BC 002:371 JLINK_WriteReg(R5, 0x00000000)  returns 0x00 (0000ms, 1473ms total)
T02BC 002:371 JLINK_WriteReg(R6, 0x00000000)  returns 0x00 (0000ms, 1473ms total)
T02BC 002:371 JLINK_WriteReg(R7, 0x00000000)  returns 0x00 (0000ms, 1473ms total)
T02BC 002:371 JLINK_WriteReg(R8, 0x00000000)  returns 0x00 (0000ms, 1473ms total)
T02BC 002:371 JLINK_WriteReg(R9, 0x20000160)  returns 0x00 (0000ms, 1473ms total)
T02BC 002:371 JLINK_WriteReg(R10, 0x00000000)  returns 0x00 (0000ms, 1473ms total)
T02BC 002:371 JLINK_WriteReg(R11, 0x00000000)  returns 0x00 (0000ms, 1473ms total)
T02BC 002:371 JLINK_WriteReg(R12, 0x00000000)  returns 0x00 (0000ms, 1473ms total)
T02BC 002:371 JLINK_WriteReg(R13, 0x20000800)  returns 0x00 (0000ms, 1473ms total)
T02BC 002:371 JLINK_WriteReg(R14, 0x20000001)  returns 0x00 (0000ms, 1473ms total)
T02BC 002:371 JLINK_WriteReg(R15, 0x200000F4)  returns 0x00 (0000ms, 1473ms total)
T02BC 002:371 JLINK_WriteReg(XPSR, 0x01000000)  returns 0x00 (0000ms, 1473ms total)
T02BC 002:371 JLINK_WriteReg(MSP, 0x20000800)  returns 0x00 (0000ms, 1473ms total)
T02BC 002:371 JLINK_WriteReg(PSP, 0x20000800)  returns 0x00 (0000ms, 1473ms total)
T02BC 002:371 JLINK_WriteReg(CFBP, 0x00000000)  returns 0x00 (0000ms, 1473ms total)
T02BC 002:371 JLINK_SetBPEx(Addr = 0x20000000, Type = 0xFFFFFFF2)  returns 0x0000000E (0000ms, 1473ms total)
T02BC 002:371 JLINK_Go() -- CPU_WriteMem(4 bytes @ 0xE0002008) -- CPU_WriteMem(4 bytes @ 0xE000200C) -- CPU_WriteMem(4 bytes @ 0xE0002010) -- CPU_WriteMem(4 bytes @ 0xE0002014) -- CPU_WriteMem(4 bytes @ 0xE0002018) -- CPU_WriteMem(4 bytes @ 0xE000201C) (0010ms, 1473ms total)
T02BC 002:381 JLINK_IsHalted()  returns FALSE (0001ms, 1483ms total)
T02BC 002:433 JLINK_IsHalted() -- CPU_ReadMem(2 bytes @ 0x20000000)  returns TRUE (0008ms, 1483ms total)
T02BC 002:441 JLINK_ReadReg(R15)  returns 0x20000000 (0000ms, 1483ms total)
T02BC 002:441 JLINK_ClrBPEx(BPHandle = 0x0000000E)  returns 0x00 (0000ms, 1483ms total)
T02BC 002:441 JLINK_ReadReg(R0)  returns 0x00000000 (0000ms, 1483ms total)
T02BC 002:441 JLINK_WriteMem(0x20000164, 0x0400 Bytes, ...) -- Data:  21 46 5C 48 00 68 08 30 FF F7 A7 FC 5A 48 00 78 ... -- CPU_WriteMem(1024 bytes @ 0x20000164)  returns 0x400 (0008ms, 1483ms total)
T02BC 002:449 JLINK_WriteReg(R0, 0x08002800)  returns 0x00 (0000ms, 1491ms total)
T02BC 002:449 JLINK_WriteReg(R1, 0x00000400)  returns 0x00 (0000ms, 1491ms total)
T02BC 002:449 JLINK_WriteReg(R2, 0x20000164)  returns 0x00 (0000ms, 1491ms total)
T02BC 002:449 JLINK_WriteReg(R3, 0x00000000)  returns 0x00 (0000ms, 1491ms total)
T02BC 002:449 JLINK_WriteReg(R4, 0x00000000)  returns 0x00 (0000ms, 1491ms total)
T02BC 002:449 JLINK_WriteReg(R5, 0x00000000)  returns 0x00 (0000ms, 1491ms total)
T02BC 002:449 JLINK_WriteReg(R6, 0x00000000)  returns 0x00 (0000ms, 1491ms total)
T02BC 002:449 JLINK_WriteReg(R7, 0x00000000)  returns 0x00 (0000ms, 1491ms total)
T02BC 002:449 JLINK_WriteReg(R8, 0x00000000)  returns 0x00 (0000ms, 1491ms total)
T02BC 002:449 JLINK_WriteReg(R9, 0x20000160)  returns 0x00 (0000ms, 1491ms total)
T02BC 002:449 JLINK_WriteReg(R10, 0x00000000)  returns 0x00 (0000ms, 1491ms total)
T02BC 002:449 JLINK_WriteReg(R11, 0x00000000)  returns 0x00 (0000ms, 1491ms total)
T02BC 002:449 JLINK_WriteReg(R12, 0x00000000)  returns 0x00 (0000ms, 1491ms total)
T02BC 002:449 JLINK_WriteReg(R13, 0x20000800)  returns 0x00 (0000ms, 1491ms total)
T02BC 002:449 JLINK_WriteReg(R14, 0x20000001)  returns 0x00 (0000ms, 1491ms total)
T02BC 002:449 JLINK_WriteReg(R15, 0x200000F4)  returns 0x00 (0000ms, 1491ms total)
T02BC 002:449 JLINK_WriteReg(XPSR, 0x01000000)  returns 0x00 (0000ms, 1491ms total)
T02BC 002:449 JLINK_WriteReg(MSP, 0x20000800)  returns 0x00 (0000ms, 1491ms total)
T02BC 002:449 JLINK_WriteReg(PSP, 0x20000800)  returns 0x00 (0000ms, 1491ms total)
T02BC 002:449 JLINK_WriteReg(CFBP, 0x00000000)  returns 0x00 (0000ms, 1491ms total)
T02BC 002:449 JLINK_SetBPEx(Addr = 0x20000000, Type = 0xFFFFFFF2)  returns 0x0000000F (0000ms, 1491ms total)
T02BC 002:449 JLINK_Go() -- CPU_WriteMem(4 bytes @ 0xE0002008) -- CPU_WriteMem(4 bytes @ 0xE000200C) -- CPU_WriteMem(4 bytes @ 0xE0002010) -- CPU_WriteMem(4 bytes @ 0xE0002014) -- CPU_WriteMem(4 bytes @ 0xE0002018) -- CPU_WriteMem(4 bytes @ 0xE000201C) (0010ms, 1491ms total)
T02BC 002:459 JLINK_IsHalted()  returns FALSE (0002ms, 1501ms total)
T02BC 002:511 JLINK_IsHalted() -- CPU_ReadMem(2 bytes @ 0x20000000)  returns TRUE (0008ms, 1501ms total)
T02BC 002:519 JLINK_ReadReg(R15)  returns 0x20000000 (0000ms, 1501ms total)
T02BC 002:519 JLINK_ClrBPEx(BPHandle = 0x0000000F)  returns 0x00 (0000ms, 1501ms total)
T02BC 002:519 JLINK_ReadReg(R0)  returns 0x00000000 (0000ms, 1501ms total)
T02BC 002:519 JLINK_WriteMem(0x20000164, 0x0400 Bytes, ...) -- Data:  00 88 6D 49 09 88 88 42 06 D1 63 48 00 68 40 88 ... -- CPU_WriteMem(1024 bytes @ 0x20000164)  returns 0x400 (0008ms, 1501ms total)
T02BC 002:527 JLINK_WriteReg(R0, 0x08002C00)  returns 0x00 (0000ms, 1509ms total)
T02BC 002:527 JLINK_WriteReg(R1, 0x00000400)  returns 0x00 (0000ms, 1509ms total)
T02BC 002:527 JLINK_WriteReg(R2, 0x20000164)  returns 0x00 (0000ms, 1509ms total)
T02BC 002:527 JLINK_WriteReg(R3, 0x00000000)  returns 0x00 (0000ms, 1509ms total)
T02BC 002:527 JLINK_WriteReg(R4, 0x00000000)  returns 0x00 (0000ms, 1509ms total)
T02BC 002:527 JLINK_WriteReg(R5, 0x00000000)  returns 0x00 (0000ms, 1509ms total)
T02BC 002:527 JLINK_WriteReg(R6, 0x00000000)  returns 0x00 (0000ms, 1509ms total)
T02BC 002:527 JLINK_WriteReg(R7, 0x00000000)  returns 0x00 (0000ms, 1509ms total)
T02BC 002:527 JLINK_WriteReg(R8, 0x00000000)  returns 0x00 (0000ms, 1509ms total)
T02BC 002:527 JLINK_WriteReg(R9, 0x20000160)  returns 0x00 (0000ms, 1509ms total)
T02BC 002:527 JLINK_WriteReg(R10, 0x00000000)  returns 0x00 (0000ms, 1509ms total)
T02BC 002:527 JLINK_WriteReg(R11, 0x00000000)  returns 0x00 (0000ms, 1509ms total)
T02BC 002:527 JLINK_WriteReg(R12, 0x00000000)  returns 0x00 (0000ms, 1509ms total)
T02BC 002:527 JLINK_WriteReg(R13, 0x20000800)  returns 0x00 (0000ms, 1509ms total)
T02BC 002:527 JLINK_WriteReg(R14, 0x20000001)  returns 0x00 (0000ms, 1509ms total)
T02BC 002:527 JLINK_WriteReg(R15, 0x200000F4)  returns 0x00 (0000ms, 1509ms total)
T02BC 002:527 JLINK_WriteReg(XPSR, 0x01000000)  returns 0x00 (0000ms, 1509ms total)
T02BC 002:527 JLINK_WriteReg(MSP, 0x20000800)  returns 0x00 (0000ms, 1509ms total)
T02BC 002:527 JLINK_WriteReg(PSP, 0x20000800)  returns 0x00 (0000ms, 1509ms total)
T02BC 002:527 JLINK_WriteReg(CFBP, 0x00000000)  returns 0x00 (0000ms, 1509ms total)
T02BC 002:527 JLINK_SetBPEx(Addr = 0x20000000, Type = 0xFFFFFFF2)  returns 0x00000010 (0000ms, 1509ms total)
T02BC 002:527 JLINK_Go() -- CPU_WriteMem(4 bytes @ 0xE0002008) -- CPU_WriteMem(4 bytes @ 0xE000200C) -- CPU_WriteMem(4 bytes @ 0xE0002010) -- CPU_WriteMem(4 bytes @ 0xE0002014) -- CPU_WriteMem(4 bytes @ 0xE0002018) -- CPU_WriteMem(4 bytes @ 0xE000201C) (0011ms, 1509ms total)
T02BC 002:538 JLINK_IsHalted()  returns FALSE (0001ms, 1520ms total)
T02BC 002:589 JLINK_IsHalted() -- CPU_ReadMem(2 bytes @ 0x20000000)  returns TRUE (0007ms, 1520ms total)
T02BC 002:596 JLINK_ReadReg(R15)  returns 0x20000000 (0000ms, 1520ms total)
T02BC 002:596 JLINK_ClrBPEx(BPHandle = 0x00000010)  returns 0x00 (0001ms, 1520ms total)
T02BC 002:597 JLINK_ReadReg(R0)  returns 0x00000000 (0000ms, 1521ms total)
T02BC 002:597 JLINK_WriteMem(0x20000164, 0x0400 Bytes, ...) -- Data:  61 73 81 78 A1 73 C1 78 E1 73 01 20 20 82 6D 48 ... -- CPU_WriteMem(1024 bytes @ 0x20000164)  returns 0x400 (0008ms, 1521ms total)
T02BC 002:605 JLINK_WriteReg(R0, 0x08003000)  returns 0x00 (0000ms, 1529ms total)
T02BC 002:605 JLINK_WriteReg(R1, 0x00000400)  returns 0x00 (0000ms, 1529ms total)
T02BC 002:605 JLINK_WriteReg(R2, 0x20000164)  returns 0x00 (0000ms, 1529ms total)
T02BC 002:605 JLINK_WriteReg(R3, 0x00000000)  returns 0x00 (0000ms, 1529ms total)
T02BC 002:605 JLINK_WriteReg(R4, 0x00000000)  returns 0x00 (0000ms, 1529ms total)
T02BC 002:605 JLINK_WriteReg(R5, 0x00000000)  returns 0x00 (0000ms, 1529ms total)
T02BC 002:605 JLINK_WriteReg(R6, 0x00000000)  returns 0x00 (0000ms, 1529ms total)
T02BC 002:605 JLINK_WriteReg(R7, 0x00000000)  returns 0x00 (0000ms, 1529ms total)
T02BC 002:605 JLINK_WriteReg(R8, 0x00000000)  returns 0x00 (0000ms, 1529ms total)
T02BC 002:605 JLINK_WriteReg(R9, 0x20000160)  returns 0x00 (0000ms, 1529ms total)
T02BC 002:605 JLINK_WriteReg(R10, 0x00000000)  returns 0x00 (0000ms, 1529ms total)
T02BC 002:605 JLINK_WriteReg(R11, 0x00000000)  returns 0x00 (0000ms, 1529ms total)
T02BC 002:605 JLINK_WriteReg(R12, 0x00000000)  returns 0x00 (0000ms, 1529ms total)
T02BC 002:605 JLINK_WriteReg(R13, 0x20000800)  returns 0x00 (0000ms, 1529ms total)
T02BC 002:605 JLINK_WriteReg(R14, 0x20000001)  returns 0x00 (0000ms, 1529ms total)
T02BC 002:605 JLINK_WriteReg(R15, 0x200000F4)  returns 0x00 (0000ms, 1529ms total)
T02BC 002:605 JLINK_WriteReg(XPSR, 0x01000000)  returns 0x00 (0000ms, 1529ms total)
